HEADER
"PSFversion" "1.00"
"simulator" "spectre"
"version" "24.1.0.078"
"date" "11:57:55 PM, Sun Jun 21, 2026"
"design" "// Switched-capacitor LPF (2-phase, PMOS switches) — PSS/PAC/PNoise verification of"
"analysis type" "pnoise"
"analysis name" "pnoise"
"analysis description" "Periodic Noise Analysis `pnoise': freq = (100 mHz -> 200 Hz)"
"xVecSorted" "ascending"
"tolerance.relative" 1.000000000000000e-05
"fundamental frequency" 1.000000000000000e+03
"sweeptype" "absolute"
"relharmnum" 1
"operating point producer" "pss"
"output" "pair of nodes"
"ground" "0"
"positive output signal" "VOUT"
"negative output signal" "0"
TYPE
"sweep" FLOAT DOUBLE PROP(
"key" "sweep"
)
"V/sqrt(Hz)" FLOAT DOUBLE PROP(
"units" "V/sqrt(Hz)"
"key" "noise"
)
"V^2/Hz" FLOAT DOUBLE PROP(
"units" "V^2/Hz"
"key" "noise"
)
"pmos_TFT_behavioral" STRUCT(
"flicker" FLOAT DOUBLE PROP(
"units" "V^2/Hz"
)
"thermal" FLOAT DOUBLE PROP(
"units" "V^2/Hz"
)
"total" FLOAT DOUBLE PROP(
"units" "V^2/Hz"
)
) PROP(
"key" "inst"
"master" "pmos_TFT"
)
SWEEP
"freq" "sweep" PROP(
"sweep_direction" 0
"units" "Hz"
"plot" 0
"grid" 3
)
TRACE
"M2" "pmos_TFT_behavioral"
"M1" "pmos_TFT_behavioral"
"out" "V/sqrt(Hz)"
VALUE
"freq" 1.000000000000000e-01
"M2" (
1.379000733660288e-11
1.595886656894498e-14
1.380596620317182e-11
)
"M1" (
8.231234746388386e-12
1.143447979406323e-14
8.242669226182449e-12
)
"out" 4.695597451800385e-06
"freq" 1.258925411794167e-01
"M2" (
1.095430588241963e-11
1.595854025501940e-14
1.097026442267465e-11
)
"M1" (
6.538562451904106e-12
1.143424583297683e-14
6.549996697737083e-12
)
"out" 4.185721099214774e-06
"freq" 1.584893192461114e-01
"M2" (
8.701770166352056e-12
1.595802310964916e-14
8.717728189461705e-12
)
"M1" (
5.193990399454995e-12
1.143387504925218e-14
5.205424274504247e-12
)
"out" 3.731374071835462e-06
"freq" 1.995262314968880e-01
"M2" (
6.912444443545008e-12
1.595720355816300e-14
6.928401647103171e-12
)
"M1" (
4.125915223007779e-12
1.143328744590126e-14
4.137348510453681e-12
)
"out" 3.326522231634241e-06
"freq" 2.511886431509581e-01
"M2" (
5.491040594102408e-12
1.595590482910523e-14
5.506996498931513e-12
)
"M1" (
3.277458026344458e-12
1.143235628103953e-14
3.288890382625497e-12
)
"out" 2.965786047839090e-06
"freq" 3.162277660168380e-01
"M2" (
4.361863691463326e-12
1.595384691548536e-14
4.377817538378811e-12
)
"M1" (
2.603435379755773e-12
1.143088079480157e-14
2.614866260550575e-12
)
"out" 2.644368317562700e-06
"freq" 3.981071705534974e-01
"M2" (
3.464780990598795e-12
1.595058642995197e-14
3.480731577028747e-12
)
"M1" (
2.067953149681836e-12
1.142854308660710e-14
2.079381692768443e-12
)
"out" 2.357989242935003e-06
"freq" 5.011872336272725e-01
"M2" (
2.752019682241960e-12
1.594542163914390e-14
2.767965103881104e-12
)
"M1" (
1.642495031436688e-12
1.142484002653469e-14
1.653919871463223e-12
)
"out" 2.102827852046935e-06
"freq" 6.309573444801935e-01
"M2" (
2.185622907203620e-12
1.593724284895940e-14
2.201560150052580e-12
)
"M1" (
1.304404007756935e-12
1.141897598431196e-14
1.315822983741247e-12
)
"out" 1.875468777077834e-06
"freq" 7.943282347242818e-01
"M2" (
1.735428605851191e-12
1.592429752215380e-14
1.751352903373344e-12
)
"M1" (
1.035675896464764e-12
1.140969442294952e-14
1.047085590887713e-12
)
"out" 1.672853398914877e-06
"freq" 1.000000000000000e+00
"M2" (
1.377463673125928e-12
1.590382360860129e-14
1.393367496734529e-12
)
"M1" (
8.220008019139536e-13
1.139501500328007e-14
8.333958169172336e-13
)
"out" 1.492234336038332e-06
"freq" 1.258925411794168e+00
"M2" (
1.092668109206432e-12
1.587148232459016e-14
1.108539591531022e-12
)
"M1" (
6.520015485699951e-13
1.137182689714147e-14
6.633733754671365e-13
)
"out" 1.331132212441033e-06
"freq" 1.584893192461114e+00
"M2" (
8.658816287100694e-13
1.582049356500850e-14
8.817021222750778e-13
)
"M1" (
5.166287844759977e-13
1.133526889381090e-14
5.279640533698086e-13
)
"out" 1.187293634971942e-06
"freq" 1.995262314968881e+00
"M2" (
6.850395419225501e-13
1.574034988226113e-14
7.007798918048113e-13
)
"M1" (
4.086810091518063e-13
1.127780734654066e-14
4.199588164983470e-13
)
"out" 1.058649473765117e-06
"freq" 2.511886431509582e+00
"M2" (
5.405365332136207e-13
1.561498164893769e-14
5.561515148625585e-13
)
"M1" (
3.224248316778075e-13
1.118792062794834e-14
3.336127523057558e-13
)
"out" 9.432731667806067e-07
"freq" 3.162277660168382e+00
"M2" (
4.247269933767673e-13
1.542032841926238e-14
4.401473217960297e-13
)
"M1" (
2.532967525542203e-13
1.104835784089280e-14
2.643451103951131e-13
)
"out" 8.393404745341087e-07
"freq" 3.981071705534976e+00
"M2" (
3.315393184309836e-13
1.512157760180670e-14
3.466608960327903e-13
)
"M1" (
1.976729864983968e-13
1.083415899774308e-14
2.085071454961399e-13
)
"out" 7.450959948415574e-07
"freq" 5.011872336272727e+00
"M2" (
2.561887942898200e-13
1.467110799088218e-14
2.708599022807022e-13
)
"M1" (
1.526981355599486e-13
1.051118057059082e-14
1.632093161305394e-13
)
"out" 6.588392963471757e-07
"freq" 6.309573444801939e+00
"M2" (
1.949770357599107e-13
1.400968929895145e-14
2.089867250588622e-13
)
"M1" (
1.161654986497709e-13
1.003695553481685e-14
1.262024541845877e-13
)
"out" 5.789552480489748e-07
"freq" 7.943282347242823e+00
"M2" (
1.451594942667963e-13
1.307549080414832e-14
1.582349850709446e-13
)
"M1" (
8.643791437800202e-14
9.367152405542206e-15
9.580506678354422e-14
)
"out" 5.040238604019544e-07
"freq" 1.000000000000001e+01
"M2" (
1.048387551077982e-13
1.182583307808936e-14
1.166645881858876e-13
)
"M1" (
6.238380397072107e-14
8.471170830202581e-15
7.085497480092365e-14
)
"out" 4.330352906944320e-07
"freq" 1.258925411794169e+01
"M2" (
7.280666052810721e-14
1.027043803316069e-14
8.307709856126791e-14
)
"M1" (
4.328243463940764e-14
7.355981265002467e-15
5.063841590441011e-14
)
"out" 3.656713202668183e-07
"freq" 1.584893192461115e+01
"M2" (
4.826067298615721e-14
8.499263433018649e-15
5.675993641917585e-14
)
"M1" (
2.865406642209078e-14
6.086081815632151e-15
3.474014823772293e-14
)
"out" 3.024898091785883e-07
"freq" 1.995262314968882e+01
"M2" (
3.042648728590434e-14
6.675554398289668e-15
3.710204168419401e-14
)
"M1" (
1.803453710644505e-14
4.778516301288309e-15
2.281305340773336e-14
)
"out" 2.447756015045768e-07
"freq" 2.511886431509583e+01
"M2" (
1.827713580383755e-14
4.982420903514659e-15
2.325955670735220e-14
)
"M1" (
1.080817168127690e-14
3.564571312200438e-15
1.437274299347734e-14
)
"out" 1.939904629120451e-07
"freq" 3.162277660168384e+01
"M2" (
1.053049012198469e-14
3.555048885615692e-15
1.408553900760038e-14
)
"M1" (
6.207294035694005e-15
2.541172837165200e-15
8.748466872859205e-15
)
"out" 1.511092514721041e-07
"freq" 3.981071705534978e+01
"M2" (
5.875372635823394e-15
2.446366008507746e-15
8.321738644331140e-15
)
"M1" (
3.447904300744236e-15
1.746269278157666e-15
5.194173578901902e-15
)
"out" 1.162579555266350e-07
"freq" 5.011872336272729e+01
"M2" (
3.207254848630742e-15
1.638766223051794e-15
4.846021071682535e-15
)
"M1" (
1.870425298091601e-15
1.167237795551097e-15
3.037663093642698e-15
)
"out" 8.879011299308743e-08
"freq" 6.309573444801941e+01
"M2" (
1.729255050278189e-15
1.077587707085552e-15
2.806842757363740e-15
)
"M1" (
9.996183793938266e-16
7.648874571107289e-16
1.764505836504556e-15
)
"out" 6.761174893366017e-08
"freq" 7.943282347242827e+01
"M2" (
9.284260477894308e-16
7.003000628780252e-16
1.628726110667456e-15
)
"M1" (
5.300116429592453e-16
4.943860481216987e-16
1.024397691080944e-15
)
"out" 5.150848281349782e-08
"freq" 1.000000000000002e+02
"M2" (
4.998143482648643e-16
4.522374188139329e-16
9.520517670787970e-16
)
"M1" (
2.802967242414558e-16
3.165406102001701e-16
5.968373344416258e-16
)
"out" 3.935592841644601e-08
"freq" 1.258925411794169e+02
"M2" (
2.714639897536863e-16
2.915161004015393e-16
5.629800901552256e-16
)
"M1" (
1.484411814492733e-16
2.013236175014599e-16
3.497647989507332e-16
)
"out" 3.021166809538922e-08
"freq" 1.584893192461116e+02
"M2" (
1.496180366665001e-16
1.883640701580163e-16
3.379821068245164e-16
)
"M1" (
7.895108513007647e-17
1.273926420464877e-16
2.063437271765642e-16
)
"out" 2.333079154253196e-08
"freq" 2.000000000000000e+02
"M2" (
8.368366336098678e-17
1.220140481061035e-16
2.056977114670903e-16
)
"M1" (
4.199374933795432e-17
7.986396616051912e-17
1.218577154984735e-16
)
"out" 1.809849239482570e-08
END
